Title: inverter example circuit for control language tutorial
Date: Thu Mar 20 12:36:56  2025
Plotname: Transient Analysis
Flags: real
No. Variables: 4
No. Points: 508
Variables:
	0	time	time
	1	v(in)	voltage
	2	v(out)	voltage
	3	i(vcc)	current
Values:
 0	0.000000000000000e+00
	0.000000000000000e+00
	1.999999944899226e+00
	-2.613155646730148e-10

 1	1.000000000000000e-12
	0.000000000000000e+00
	1.999999945481653e+00
	-2.683593035290865e-10

 2	2.000000000000000e-12
	0.000000000000000e+00
	1.999999945931678e+00
	-2.667580531467983e-10

 3	4.000000000000001e-12
	0.000000000000000e+00
	1.999999946627124e+00
	-2.642836262334303e-10

 4	8.000000000000001e-12
	0.000000000000000e+00
	1.999999947245150e+00
	-2.620846421830247e-10

 5	1.600000000000000e-11
	0.000000000000000e+00
	1.999999947478858e+00
	-2.612530955459214e-10

 6	3.200000000000001e-11
	0.000000000000000e+00
	1.999999947454213e+00
	-2.613407823481850e-10

 7	6.400000000000001e-11
	0.000000000000000e+00
	1.999999947465904e+00
	-2.612991923528485e-10

 8	1.280000000000000e-10
	0.000000000000000e+00
	1.999999947457580e+00
	-2.613287988784130e-10

 9	2.280000000000000e-10
	0.000000000000000e+00
	1.999999947464546e+00
	-2.613040183535587e-10

 10	3.280000000000001e-10
	0.000000000000000e+00
	1.999999947458467e+00
	-2.613256451511337e-10

 11	4.280000000000001e-10
	0.000000000000000e+00
	1.999999947463772e+00
	-2.613067782986089e-10

 12	5.280000000000000e-10
	0.000000000000000e+00
	1.999999947459142e+00
	-2.613232425591194e-10

 13	6.280000000000000e-10
	0.000000000000000e+00
	1.999999947463182e+00
	-2.613088721098444e-10

 14	7.280000000000000e-10
	0.000000000000000e+00
	1.999999947459657e+00
	-2.613214124258523e-10

 15	8.279999999999999e-10
	0.000000000000000e+00
	1.999999947462734e+00
	-2.613104680554423e-10

 16	9.279999999999999e-10
	0.000000000000000e+00
	1.999999947460049e+00
	-2.613200177081776e-10

 17	1.028000000000000e-09
	0.000000000000000e+00
	1.999999947462392e+00
	-2.613116840965990e-10

 18	1.128000000000000e-09
	0.000000000000000e+00
	1.999999947460347e+00
	-2.613189543226868e-10

 19	1.228000000000000e-09
	0.000000000000000e+00
	1.999999947462131e+00
	-2.613126121736586e-10

 20	1.328000000000000e-09
	0.000000000000000e+00
	1.999999947460573e+00
	-2.613181528804409e-10

 21	1.428000000000000e-09
	0.000000000000000e+00
	1.999999947461934e+00
	-2.613133112672195e-10

 22	1.528000000000000e-09
	0.000000000000000e+00
	1.999999947460747e+00
	-2.613175318494365e-10

 23	1.628000000000000e-09
	0.000000000000000e+00
	1.999999947461782e+00
	-2.613138490314970e-10

 24	1.728000000000000e-09
	0.000000000000000e+00
	1.999999947460879e+00
	-2.613170617393745e-10

 25	1.828000000000001e-09
	0.000000000000000e+00
	1.999999947461667e+00
	-2.613142601609608e-10

 26	1.928000000000000e-09
	0.000000000000000e+00
	1.999999947460980e+00
	-2.613167078557854e-10

 27	2.028000000000000e-09
	0.000000000000000e+00
	1.999999947461580e+00
	-2.613145758806334e-10

 28	2.128000000000001e-09
	0.000000000000000e+00
	1.999999947461056e+00
	-2.613164320347527e-10

 29	2.228000000000001e-09
	0.000000000000000e+00
	1.999999947461513e+00
	-2.613148118030262e-10

 30	2.328000000000001e-09
	0.000000000000000e+00
	1.999999947461114e+00
	-2.613162273373826e-10

 31	2.428000000000001e-09
	0.000000000000000e+00
	1.999999947461462e+00
	-2.613149922142677e-10

 32	2.528000000000001e-09
	0.000000000000000e+00
	1.999999947461158e+00
	-2.613160677428228e-10

 33	2.628000000000001e-09
	0.000000000000000e+00
	1.999999947461423e+00
	-2.613151309921458e-10

 34	2.728000000000001e-09
	0.000000000000000e+00
	1.999999947461192e+00
	-2.613159497816264e-10

 35	2.828000000000001e-09
	0.000000000000000e+00
	1.999999947461394e+00
	-2.613152333408308e-10

 36	2.928000000000001e-09
	0.000000000000000e+00
	1.999999947461218e+00
	-2.613158561065587e-10

 37	3.028000000000001e-09
	0.000000000000000e+00
	1.999999947461372e+00
	-2.613153166075577e-10

 38	3.128000000000001e-09
	0.000000000000000e+00
	1.999999947461238e+00
	-2.613157901870666e-10

 39	3.228000000000001e-09
	0.000000000000000e+00
	1.999999947461355e+00
	-2.613153773228793e-10

 40	3.328000000000001e-09
	0.000000000000000e+00
	1.999999947461252e+00
	-2.613157364106389e-10

 41	3.428000000000001e-09
	0.000000000000000e+00
	1.999999947461341e+00
	-2.613154224256897e-10

 42	3.528000000000001e-09
	0.000000000000000e+00
	1.999999947461264e+00
	-2.613156947772755e-10

 43	3.628000000000002e-09
	0.000000000000000e+00
	1.999999947461331e+00
	-2.613154553854358e-10

 44	3.728000000000001e-09
	0.000000000000000e+00
	1.999999947461272e+00
	-2.613156635522529e-10

 45	3.828000000000001e-09
	0.000000000000000e+00
	1.999999947461323e+00
	-2.613154866104583e-10

 46	3.928000000000001e-09
	0.000000000000000e+00
	1.999999947461279e+00
	-2.613156410008477e-10

 47	4.028000000000001e-09
	0.000000000000000e+00
	1.999999947461318e+00
	-2.613155039576931e-10

 48	4.128000000000001e-09
	0.000000000000000e+00
	1.999999947461284e+00
	-2.613156253883364e-10

 49	4.228000000000002e-09
	0.000000000000000e+00
	1.999999947461314e+00
	-2.613155195702044e-10

 50	4.328000000000002e-09
	0.000000000000000e+00
	1.999999947461288e+00
	-2.613156115105486e-10

 51	4.428000000000002e-09
	0.000000000000000e+00
	1.999999947461311e+00
	-2.613155317132687e-10

 52	4.528000000000002e-09
	0.000000000000000e+00
	1.999999947461291e+00
	-2.613155958980373e-10

 53	4.628000000000002e-09
	0.000000000000000e+00
	1.999999947461308e+00
	-2.613155386521626e-10

 54	4.728000000000002e-09
	0.000000000000000e+00
	1.999999947461293e+00
	-2.613155924285904e-10

 55	4.828000000000002e-09
	0.000000000000000e+00
	1.999999947461306e+00
	-2.613155473257800e-10

 56	4.928000000000002e-09
	0.000000000000000e+00
	1.999999947461295e+00
	-2.613155837549730e-10

 57	5.028000000000002e-09
	0.000000000000000e+00
	1.999999947461304e+00
	-2.613155525299504e-10

 58	5.128000000000002e-09
	0.000000000000000e+00
	1.999999947461296e+00
	-2.613155785508026e-10

 59	5.228000000000002e-09
	0.000000000000000e+00
	1.999999947461303e+00
	-2.613155577341209e-10

 60	5.328000000000002e-09
	0.000000000000000e+00
	1.999999947461296e+00
	-2.613155820202495e-10

 61	5.428000000000002e-09
	0.000000000000000e+00
	1.999999947461303e+00
	-2.613155594688443e-10

 62	5.528000000000002e-09
	0.000000000000000e+00
	1.999999947461297e+00
	-2.613155785508026e-10

 63	5.628000000000002e-09
	0.000000000000000e+00
	1.999999947461302e+00
	-2.613155612035678e-10

 64	5.728000000000003e-09
	0.000000000000000e+00
	1.999999947461298e+00
	-2.613155733466321e-10

 65	5.828000000000003e-09
	0.000000000000000e+00
	1.999999947461301e+00
	-2.613155646730148e-10

 66	5.928000000000003e-09
	0.000000000000000e+00
	1.999999947461299e+00
	-2.613155698771852e-10

 67	6.028000000000003e-09
	0.000000000000000e+00
	1.999999947461301e+00
	-2.613155664077382e-10

 68	6.128000000000003e-09
	0.000000000000000e+00
	1.999999947461299e+00
	-2.613155698771852e-10

 69	6.228000000000003e-09
	0.000000000000000e+00
	1.999999947461301e+00
	-2.613155664077382e-10

 70	6.328000000000003e-09
	0.000000000000000e+00
	1.999999947461299e+00
	-2.613155698771852e-10

 71	6.428000000000003e-09
	0.000000000000000e+00
	1.999999947461300e+00
	-2.613155698771852e-10

 72	6.528000000000003e-09
	0.000000000000000e+00
	1.999999947461299e+00
	-2.613155698771852e-10

 73	6.628000000000003e-09
	0.000000000000000e+00
	1.999999947461301e+00
	-2.613155664077382e-10

 74	6.728000000000003e-09
	0.000000000000000e+00
	1.999999947461299e+00
	-2.613155681424617e-10

 75	6.828000000000003e-09
	0.000000000000000e+00
	1.999999947461300e+00
	-2.613155681424617e-10

 76	6.928000000000003e-09
	0.000000000000000e+00
	1.999999947461299e+00
	-2.613155681424617e-10

 77	7.028000000000003e-09
	0.000000000000000e+00
	1.999999947461300e+00
	-2.613155698771852e-10

 78	7.128000000000004e-09
	0.000000000000000e+00
	1.999999947461299e+00
	-2.613155681424617e-10

 79	7.228000000000004e-09
	0.000000000000000e+00
	1.999999947461300e+00
	-2.613155698771852e-10

 80	7.328000000000004e-09
	0.000000000000000e+00
	1.999999947461299e+00
	-2.613155681424617e-10

 81	7.428000000000004e-09
	0.000000000000000e+00
	1.999999947461300e+00
	-2.613155698771852e-10

 82	7.528000000000003e-09
	0.000000000000000e+00
	1.999999947461299e+00
	-2.613155681424617e-10

 83	7.628000000000002e-09
	0.000000000000000e+00
	1.999999947461300e+00
	-2.613155716119087e-10

 84	7.728000000000001e-09
	0.000000000000000e+00
	1.999999947461300e+00
	-2.613155681424617e-10

 85	7.828000000000001e-09
	0.000000000000000e+00
	1.999999947461300e+00
	-2.613155698771852e-10

 86	7.928000000000000e-09
	0.000000000000000e+00
	1.999999947461300e+00
	-2.613155681424617e-10

 87	8.027999999999999e-09
	0.000000000000000e+00
	1.999999947461300e+00
	-2.613155698771852e-10

 88	8.127999999999998e-09
	0.000000000000000e+00
	1.999999947461300e+00
	-2.613155681424617e-10

 89	8.227999999999998e-09
	0.000000000000000e+00
	1.999999947461300e+00
	-2.613155698771852e-10

 90	8.327999999999997e-09
	0.000000000000000e+00
	1.999999947461300e+00
	-2.613155681424617e-10

 91	8.427999999999996e-09
	0.000000000000000e+00
	1.999999947461300e+00
	-2.613155698771852e-10

 92	8.527999999999995e-09
	0.000000000000000e+00
	1.999999947461300e+00
	-2.613155681424617e-10

 93	8.627999999999995e-09
	0.000000000000000e+00
	1.999999947461300e+00
	-2.613155698771852e-10

 94	8.727999999999994e-09
	0.000000000000000e+00
	1.999999947461300e+00
	-2.613155681424617e-10

 95	8.827999999999993e-09
	0.000000000000000e+00
	1.999999947461300e+00
	-2.613155698771852e-10

 96	8.927999999999992e-09
	0.000000000000000e+00
	1.999999947461300e+00
	-2.613155681424617e-10

 97	9.027999999999992e-09
	0.000000000000000e+00
	1.999999947461300e+00
	-2.613155698771852e-10

 98	9.127999999999991e-09
	0.000000000000000e+00
	1.999999947461300e+00
	-2.613155681424617e-10

 99	9.227999999999990e-09
	0.000000000000000e+00
	1.999999947461300e+00
	-2.613155698771852e-10

 100	9.327999999999989e-09
	0.000000000000000e+00
	1.999999947461300e+00
	-2.613155681424617e-10

 101	9.427999999999989e-09
	0.000000000000000e+00
	1.999999947461300e+00
	-2.613155698771852e-10

 102	9.527999999999988e-09
	0.000000000000000e+00
	1.999999947461300e+00
	-2.613155681424617e-10

 103	9.627999999999987e-09
	0.000000000000000e+00
	1.999999947461300e+00
	-2.613155698771852e-10

 104	9.727999999999986e-09
	0.000000000000000e+00
	1.999999947461300e+00
	-2.613155681424617e-10

 105	9.827999999999986e-09
	0.000000000000000e+00
	1.999999947461300e+00
	-2.613155698771852e-10

 106	9.927999999999985e-09
	0.000000000000000e+00
	1.999999947461300e+00
	-2.613155681424617e-10

 107	1.002799999999998e-08
	0.000000000000000e+00
	1.999999947461300e+00
	-2.613155698771852e-10

 108	1.012799999999998e-08
	0.000000000000000e+00
	1.999999947461300e+00
	-2.613155681424617e-10

 109	1.022799999999998e-08
	0.000000000000000e+00
	1.999999947461300e+00
	-2.613155698771852e-10

 110	1.032799999999998e-08
	0.000000000000000e+00
	1.999999947461300e+00
	-2.613155681424617e-10

 111	1.042799999999998e-08
	0.000000000000000e+00
	1.999999947461300e+00
	-2.613155698771852e-10

 112	1.052799999999998e-08
	0.000000000000000e+00
	1.999999947461300e+00
	-2.613155681424617e-10

 113	1.062799999999998e-08
	0.000000000000000e+00
	1.999999947461300e+00
	-2.613155698771852e-10

 114	1.072799999999998e-08
	0.000000000000000e+00
	1.999999947461300e+00
	-2.613155681424617e-10

 115	1.082799999999998e-08
	0.000000000000000e+00
	1.999999947461300e+00
	-2.613155698771852e-10

 116	1.092799999999998e-08
	0.000000000000000e+00
	1.999999947461300e+00
	-2.613155681424617e-10

 117	1.102799999999998e-08
	0.000000000000000e+00
	1.999999947461300e+00
	-2.613155698771852e-10

 118	1.112799999999998e-08
	0.000000000000000e+00
	1.999999947461300e+00
	-2.613155681424617e-10

 119	1.122799999999997e-08
	0.000000000000000e+00
	1.999999947461300e+00
	-2.613155698771852e-10

 120	1.132799999999997e-08
	0.000000000000000e+00
	1.999999947461300e+00
	-2.613155681424617e-10

 121	1.142799999999997e-08
	0.000000000000000e+00
	1.999999947461300e+00
	-2.613155698771852e-10

 122	1.152799999999997e-08
	0.000000000000000e+00
	1.999999947461300e+00
	-2.613155681424617e-10

 123	1.162799999999997e-08
	0.000000000000000e+00
	1.999999947461300e+00
	-2.613155698771852e-10

 124	1.172799999999997e-08
	0.000000000000000e+00
	1.999999947461300e+00
	-2.613155681424617e-10

 125	1.182799999999997e-08
	0.000000000000000e+00
	1.999999947461300e+00
	-2.613155698771852e-10

 126	1.192799999999997e-08
	0.000000000000000e+00
	1.999999947461300e+00
	-2.613155681424617e-10

 127	1.202799999999997e-08
	0.000000000000000e+00
	1.999999947461300e+00
	-2.613155698771852e-10

 128	1.212799999999997e-08
	0.000000000000000e+00
	1.999999947461300e+00
	-2.613155681424617e-10

 129	1.222799999999997e-08
	0.000000000000000e+00
	1.999999947461300e+00
	-2.613155698771852e-10

 130	1.232799999999997e-08
	0.000000000000000e+00
	1.999999947461300e+00
	-2.613155681424617e-10

 131	1.242799999999997e-08
	0.000000000000000e+00
	1.999999947461300e+00
	-2.613155698771852e-10

 132	1.252799999999997e-08
	0.000000000000000e+00
	1.999999947461300e+00
	-2.613155681424617e-10

 133	1.262799999999996e-08
	0.000000000000000e+00
	1.999999947461300e+00
	-2.613155698771852e-10

 134	1.272799999999996e-08
	0.000000000000000e+00
	1.999999947461300e+00
	-2.613155681424617e-10

 135	1.282799999999996e-08
	0.000000000000000e+00
	1.999999947461300e+00
	-2.613155698771852e-10

 136	1.292799999999996e-08
	0.000000000000000e+00
	1.999999947461300e+00
	-2.613155681424617e-10

 137	1.302799999999996e-08
	0.000000000000000e+00
	1.999999947461300e+00
	-2.613155698771852e-10

 138	1.312799999999996e-08
	0.000000000000000e+00
	1.999999947461300e+00
	-2.613155681424617e-10

 139	1.322799999999996e-08
	0.000000000000000e+00
	1.999999947461300e+00
	-2.613155698771852e-10

 140	1.332799999999996e-08
	0.000000000000000e+00
	1.999999947461300e+00
	-2.613155681424617e-10

 141	1.342799999999996e-08
	0.000000000000000e+00
	1.999999947461300e+00
	-2.613155698771852e-10

 142	1.352799999999996e-08
	0.000000000000000e+00
	1.999999947461300e+00
	-2.613155681424617e-10

 143	1.362799999999996e-08
	0.000000000000000e+00
	1.999999947461300e+00
	-2.613155698771852e-10

 144	1.372799999999996e-08
	0.000000000000000e+00
	1.999999947461300e+00
	-2.613155681424617e-10

 145	1.382799999999996e-08
	0.000000000000000e+00
	1.999999947461300e+00
	-2.613155698771852e-10

 146	1.392799999999995e-08
	0.000000000000000e+00
	1.999999947461300e+00
	-2.613155681424617e-10

 147	1.402799999999995e-08
	0.000000000000000e+00
	1.999999947461300e+00
	-2.613155698771852e-10

 148	1.412799999999995e-08
	0.000000000000000e+00
	1.999999947461300e+00
	-2.613155681424617e-10

 149	1.422799999999995e-08
	0.000000000000000e+00
	1.999999947461300e+00
	-2.613155698771852e-10

 150	1.432799999999995e-08
	0.000000000000000e+00
	1.999999947461300e+00
	-2.613155681424617e-10

 151	1.442799999999995e-08
	0.000000000000000e+00
	1.999999947461300e+00
	-2.613155698771852e-10

 152	1.452799999999995e-08
	0.000000000000000e+00
	1.999999947461300e+00
	-2.613155681424617e-10

 153	1.462799999999995e-08
	0.000000000000000e+00
	1.999999947461300e+00
	-2.613155698771852e-10

 154	1.472799999999995e-08
	0.000000000000000e+00
	1.999999947461300e+00
	-2.613155681424617e-10

 155	1.482799999999995e-08
	0.000000000000000e+00
	1.999999947461300e+00
	-2.613155698771852e-10

 156	1.492799999999995e-08
	0.000000000000000e+00
	1.999999947461300e+00
	-2.613155681424617e-10

 157	1.502799999999995e-08
	0.000000000000000e+00
	1.999999947461300e+00
	-2.613155698771852e-10

 158	1.512799999999995e-08
	0.000000000000000e+00
	1.999999947461300e+00
	-2.613155681424617e-10

 159	1.522799999999995e-08
	0.000000000000000e+00
	1.999999947461300e+00
	-2.613155698771852e-10

 160	1.532799999999995e-08
	0.000000000000000e+00
	1.999999947461300e+00
	-2.613155681424617e-10

 161	1.542799999999995e-08
	0.000000000000000e+00
	1.999999947461300e+00
	-2.613155698771852e-10

 162	1.552799999999995e-08
	0.000000000000000e+00
	1.999999947461300e+00
	-2.613155681424617e-10

 163	1.562799999999995e-08
	0.000000000000000e+00
	1.999999947461300e+00
	-2.613155698771852e-10

 164	1.572799999999995e-08
	0.000000000000000e+00
	1.999999947461300e+00
	-2.613155681424617e-10

 165	1.582799999999995e-08
	0.000000000000000e+00
	1.999999947461300e+00
	-2.613155698771852e-10

 166	1.592799999999996e-08
	0.000000000000000e+00
	1.999999947461300e+00
	-2.613155681424617e-10

 167	1.602799999999996e-08
	0.000000000000000e+00
	1.999999947461300e+00
	-2.613155698771852e-10

 168	1.612799999999996e-08
	0.000000000000000e+00
	1.999999947461300e+00
	-2.613155681424617e-10

 169	1.622799999999996e-08
	0.000000000000000e+00
	1.999999947461300e+00
	-2.613155698771852e-10

 170	1.632799999999996e-08
	0.000000000000000e+00
	1.999999947461300e+00
	-2.613155681424617e-10

 171	1.642799999999996e-08
	0.000000000000000e+00
	1.999999947461300e+00
	-2.613155698771852e-10

 172	1.652799999999996e-08
	0.000000000000000e+00
	1.999999947461300e+00
	-2.613155681424617e-10

 173	1.662799999999996e-08
	0.000000000000000e+00
	1.999999947461300e+00
	-2.613155698771852e-10

 174	1.672799999999996e-08
	0.000000000000000e+00
	1.999999947461300e+00
	-2.613155681424617e-10

 175	1.682799999999996e-08
	0.000000000000000e+00
	1.999999947461300e+00
	-2.613155698771852e-10

 176	1.692799999999996e-08
	0.000000000000000e+00
	1.999999947461300e+00
	-2.613155681424617e-10

 177	1.702799999999997e-08
	0.000000000000000e+00
	1.999999947461300e+00
	-2.613155698771852e-10

 178	1.712799999999997e-08
	0.000000000000000e+00
	1.999999947461300e+00
	-2.613155681424617e-10

 179	1.722799999999997e-08
	0.000000000000000e+00
	1.999999947461300e+00
	-2.613155698771852e-10

 180	1.732799999999997e-08
	0.000000000000000e+00
	1.999999947461300e+00
	-2.613155681424617e-10

 181	1.742799999999997e-08
	0.000000000000000e+00
	1.999999947461300e+00
	-2.613155698771852e-10

 182	1.752799999999997e-08
	0.000000000000000e+00
	1.999999947461300e+00
	-2.613155681424617e-10

 183	1.762799999999997e-08
	0.000000000000000e+00
	1.999999947461300e+00
	-2.613155698771852e-10

 184	1.772799999999997e-08
	0.000000000000000e+00
	1.999999947461300e+00
	-2.613155681424617e-10

 185	1.782799999999997e-08
	0.000000000000000e+00
	1.999999947461300e+00
	-2.613155698771852e-10

 186	1.792799999999997e-08
	0.000000000000000e+00
	1.999999947461300e+00
	-2.613155681424617e-10

 187	1.802799999999997e-08
	0.000000000000000e+00
	1.999999947461300e+00
	-2.613155698771852e-10

 188	1.812799999999998e-08
	0.000000000000000e+00
	1.999999947461300e+00
	-2.613155681424617e-10

 189	1.822799999999998e-08
	0.000000000000000e+00
	1.999999947461300e+00
	-2.613155698771852e-10

 190	1.832799999999998e-08
	0.000000000000000e+00
	1.999999947461300e+00
	-2.613155681424617e-10

 191	1.842799999999998e-08
	0.000000000000000e+00
	1.999999947461300e+00
	-2.613155698771852e-10

 192	1.852799999999998e-08
	0.000000000000000e+00
	1.999999947461300e+00
	-2.613155681424617e-10

 193	1.862799999999998e-08
	0.000000000000000e+00
	1.999999947461300e+00
	-2.613155698771852e-10

 194	1.872799999999998e-08
	0.000000000000000e+00
	1.999999947461300e+00
	-2.613155681424617e-10

 195	1.882799999999998e-08
	0.000000000000000e+00
	1.999999947461300e+00
	-2.613155698771852e-10

 196	1.892799999999998e-08
	0.000000000000000e+00
	1.999999947461300e+00
	-2.613155681424617e-10

 197	1.902799999999998e-08
	0.000000000000000e+00
	1.999999947461300e+00
	-2.613155698771852e-10

 198	1.912799999999998e-08
	0.000000000000000e+00
	1.999999947461300e+00
	-2.613155681424617e-10

 199	1.922799999999999e-08
	0.000000000000000e+00
	1.999999947461300e+00
	-2.613155698771852e-10

 200	1.932799999999999e-08
	0.000000000000000e+00
	1.999999947461300e+00
	-2.613155681424617e-10

 201	1.942799999999999e-08
	0.000000000000000e+00
	1.999999947461300e+00
	-2.613155698771852e-10

 202	1.952799999999999e-08
	0.000000000000000e+00
